freq/Hz	Re(Z)/Ohm	-Im(Z)/Ohm	|Z|/Ohm	Phase(Z)/deg	cycle number	
1.0000193E+006	2.6912764E+004	4.1673941E+004	4.9608609E+004	-5.7145885E+001	1.000000000000000E+000
7.9432600E+005	3.4708629E+004	4.3036020E+004	5.5288227E+004	-5.1113762E+001	1.000000000000000E+000
6.3095688E+005	4.2002879E+004	4.2982336E+004	6.0097613E+004	-4.5660305E+001	1.000000000000000E+000
5.0119131E+005	4.8298195E+004	4.3533727E+004	6.5022313E+004	-4.2030018E+001	1.000000000000000E+000
3.9810538E+005	5.4107363E+004	4.3938230E+004	6.9700609E+004	-3.9078545E+001	1.000000000000000E+000
3.1623041E+005	5.9034922E+004	4.4978590E+004	7.4217219E+004	-3.7303703E+001	1.000000000000000E+000
2.5119134E+005	6.3723457E+004	4.7068605E+004	7.9222047E+004	-3.6451004E+001	1.000000000000000E+000
1.9952144E+005	6.8153039E+004	5.0047887E+004	8.4555469E+004	-3.6291538E+001	1.000000000000000E+000
1.5848630E+005	7.2739344E+004	5.4147211E+004	9.0680391E+004	-3.6664017E+001	1.000000000000000E+000
1.2588864E+005	7.7460219E+004	5.9492848E+004	9.7670281E+004	-3.7525845E+001	1.000000000000000E+000
1.0001951E+005	8.2168227E+004	6.6706281E+004	1.0583641E+005	-3.9070580E+001	1.000000000000000E+000
7.9433578E+004	8.6983898E+004	7.5751289E+004	1.1534495E+005	-4.1051491E+001	1.000000000000000E+000
6.3095688E+004	9.2280375E+004	8.7159469E+004	1.2693479E+005	-4.3365322E+001	1.000000000000000E+000
5.0117172E+004	9.7987352E+004	1.0135923E+005	1.4097948E+005	-4.5969044E+001	1.000000000000000E+000
3.9814441E+004	1.0430580E+005	1.1883056E+005	1.5811516E+005	-4.8724335E+001	1.000000000000000E+000
3.1621082E+004	1.1081302E+005	1.4041445E+005	1.7887355E+005	-5.1720016E+001	1.000000000000000E+000
2.5117180E+004	1.1830649E+005	1.6721603E+005	2.0483561E+005	-5.4720329E+001	1.000000000000000E+000
1.9951164E+004	1.2541760E+005	2.0008969E+005	2.3614711E+005	-5.7920231E+001	1.000000000000000E+000
1.5849604E+004	1.3411350E+005	2.4168628E+005	2.7640313E+005	-6.0973782E+001	1.000000000000000E+000
1.2587890E+004	1.4247830E+005	2.9208872E+005	3.2498597E+005	-6.3997288E+001	1.000000000000000E+000
1.0019525E+004	1.5411188E+005	3.5545056E+005	3.8742169E+005	-6.6560005E+001	1.000000000000000E+000
8.0808101E+003	1.7642338E+005	4.8163475E+005	5.1293006E+005	-6.9882156E+001	1.000000000000000E+000
6.4205449E+003	2.0091559E+005	5.8690775E+005	6.2034488E+005	-7.1102432E+001	1.000000000000000E+000
5.0116030E+003	2.3307584E+005	7.2533138E+005	7.6185956E+005	-7.2185867E+001	1.000000000000000E+000
3.9812698E+003	2.7152559E+005	8.8338306E+005	9.2417088E+005	-7.2914131E+001	1.000000000000000E+000
3.1630396E+003	3.1701831E+005	1.0742701E+006	1.1200700E+006	-7.3558609E+001	1.000000000000000E+000
2.5124102E+003	3.6989672E+005	1.3066075E+006	1.3579569E+006	-7.4193336E+001	1.000000000000000E+000
1.9956379E+003	4.2840309E+005	1.5893359E+006	1.6460613E+006	-7.4914543E+001	1.000000000000000E+000
1.5844926E+003	4.9405081E+005	1.9377296E+006	1.9997205E+006	-7.5696396E+001	1.000000000000000E+000
1.2587904E+003	5.7061700E+005	2.3706293E+006	2.4383370E+006	-7.6466202E+001	1.000000000000000E+000
9.9968164E+002	1.3188218E+006	3.5626040E+006	3.7988733E+006	-6.9686211E+001	1.000000000000000E+000
7.9423932E+002	1.5932786E+006	4.2081980E+006	4.4997185E+006	-6.9262680E+001	1.000000000000000E+000
6.3100977E+002	1.8859781E+006	4.9702280E+006	5.3160210E+006	-6.9220497E+001	1.000000000000000E+000
5.0112231E+002	2.1751615E+006	5.8997630E+006	6.2879670E+006	-6.9761765E+001	1.000000000000000E+000
3.9808899E+002	2.4690455E+006	7.0400620E+006	7.4604730E+006	-7.0673538E+001	1.000000000000000E+000
3.1631589E+002	2.7825755E+006	8.4864960E+006	8.9310320E+006	-7.1846573E+001	1.000000000000000E+000
2.5120601E+002	3.1374318E+006	1.0306162E+007	1.0773136E+007	-7.3068550E+001	1.000000000000000E+000
1.9955261E+002	3.5863873E+006	1.2569314E+007	1.3070954E+007	-7.4075027E+001	1.000000000000000E+000
1.5852898E+002	4.0977745E+006	1.5389855E+007	1.5926060E+007	-7.5090088E+001	1.000000000000000E+000
1.2592673E+002	4.7797285E+006	1.8860208E+007	1.9456444E+007	-7.5778984E+001	1.000000000000000E+000
9.9968163E+001	1.1883438E+007	2.9089748E+007	3.1423392E+007	-6.7779518E+001	1.000000000000000E+000
7.9415733E+001	1.4265045E+007	3.3887532E+007	3.6767600E+007	-6.7171219E+001	1.000000000000000E+000
6.3082275E+001	1.6842004E+007	3.3642544E+007	3.7622784E+007	-6.3406708E+001	1.000000000000000E+000
5.0112232E+001	1.9483290E+007	4.6927652E+007	5.0811448E+007	-6.7452896E+001	1.000000000000000E+000
3.9808899E+001	2.2311670E+007	5.5785368E+007	6.0081760E+007	-6.8200783E+001	1.000000000000000E+000
3.1629576E+001	2.5184190E+007	6.8213248E+007	7.2713760E+007	-6.9735962E+001	1.000000000000000E+000
2.5120600E+001	3.0410314E+007	8.0508664E+007	8.6060632E+007	-6.9307083E+001	1.000000000000000E+000
1.9955261E+001	3.5086488E+007	9.8144592E+007	1.0422774E+008	-7.0328133E+001	1.000000000000000E+000
1.5846863E+001	4.1427536E+007	1.1844374E+008	1.2547972E+008	-7.0721924E+001	1.000000000000000E+000
1.2587234E+001	9.8632808E+007	1.8122605E+008	2.0632816E+008	-6.1442627E+001	1.000000000000000E+000
9.9968157E+000	1.2293410E+008	2.0686595E+008	2.4063731E+008	-5.9278282E+001	1.000000000000000E+000
7.9395618E+000	1.4890578E+008	2.3458446E+008	2.7785392E+008	-5.7594090E+001	1.000000000000000E+000
6.3131294E+000	1.7847512E+008	2.6554968E+008	3.1995312E+008	-5.6095074E+001	1.000000000000000E+000
5.0128322E+000	2.1154880E+008	3.0200643E+008	3.6872861E+008	-5.4989609E+001	1.000000000000000E+000
3.9819028E+000	2.5305307E+008	3.4652342E+008	4.2908547E+008	-5.3860744E+001	1.000000000000000E+000
3.1603944E+000	3.0207632E+008	3.9763072E+008	4.9935987E+008	-5.2776405E+001	1.000000000000000E+000
2.5108454E+000	3.6883245E+008	4.4875725E+008	5.8087904E+008	-5.0583302E+001	1.000000000000000E+000
1.9955261E+000	4.4617133E+008	5.0659389E+008	6.7506016E+008	-4.8628731E+001	1.000000000000000E+000
1.5840454E+000	5.4333632E+008	5.6017050E+008	7.8038797E+008	-4.5873989E+001	1.000000000000000E+000
1.2595726E+000	6.5853536E+008	5.9051898E+008	8.8452333E+008	-4.1883076E+001	1.000000000000000E+000
1.0004489E+000	7.7896563E+008	6.1214080E+008	9.9070874E+008	-3.8161610E+001	1.000000000000000E+000
1.0000193E+006	2.6833736E+004	4.4535266E+004	5.1994609E+004	-5.8929867E+001	2.000000000000000E+000
7.9432600E+005	3.4828172E+004	4.5517555E+004	5.7313605E+004	-5.2578262E+001	2.000000000000000E+000
6.3095688E+005	4.1863809E+004	4.6294828E+004	6.2416262E+004	-4.7877373E+001	2.000000000000000E+000
5.0119131E+005	4.8407035E+004	4.6821984E+004	6.7346414E+004	-4.4046421E+001	2.000000000000000E+000
3.9810538E+005	5.4371883E+004	4.8007105E+004	7.2532641E+004	-4.1442570E+001	2.000000000000000E+000
3.1623041E+005	5.9730340E+004	4.9996914E+004	7.7893547E+004	-3.9930809E+001	2.000000000000000E+000
2.5119134E+005	6.4628504E+004	5.2915059E+004	8.3527523E+004	-3.9309151E+001	2.000000000000000E+000
1.9952144E+005	6.9837641E+004	5.6607906E+004	8.9898563E+004	-3.9026993E+001	2.000000000000000E+000
1.5848630E+005	7.4874773E+004	6.1818719E+004	9.7096781E+004	-3.9544041E+001	2.000000000000000E+000
1.2588864E+005	8.0175992E+004	6.8623547E+004	1.0553379E+005	-4.0560596E+001	2.000000000000000E+000
1.0001951E+005	8.5659695E+004	7.7190789E+004	1.1530829E+005	-4.2023060E+001	2.000000000000000E+000
7.9433578E+004	9.1189773E+004	8.7828758E+004	1.2660752E+005	-4.3924416E+001	2.000000000000000E+000
6.3095688E+004	9.7436531E+004	1.0122786E+005	1.4050252E+005	-4.6093307E+001	2.000000000000000E+000
5.0117172E+004	1.0400013E+005	1.1750736E+005	1.5692038E+005	-4.8489502E+001	2.000000000000000E+000
3.9814441E+004	1.1123645E+005	1.3761978E+005	1.7695409E+005	-5.1051800E+001	2.000000000000000E+000
3.1621082E+004	1.1882918E+005	1.6214044E+005	2.0102213E+005	-5.3763126E+001	2.000000000000000E+000
2.5117180E+004	1.2758220E+005	1.9284814E+005	2.3123067E+005	-5.6512642E+001	2.000000000000000E+000
1.9951164E+004	1.3546602E+005	2.3039936E+005	2.6727309E+005	-5.9546101E+001	2.000000000000000E+000
1.5849604E+004	1.4514350E+005	2.7749975E+005	3.1316569E+005	-6.2388630E+001	2.000000000000000E+000
1.2587890E+004	1.5469984E+005	3.3557041E+005	3.6951256E+005	-6.5250031E+001	2.000000000000000E+000
1.0019525E+004	1.7194125E+005	4.5713191E+005	4.8839878E+005	-6.9387192E+001	2.000000000000000E+000
8.0808101E+003	1.9296728E+005	5.4935888E+005	5.8226413E+005	-7.0645714E+001	2.000000000000000E+000
6.4205449E+003	2.2093006E+005	6.6816544E+005	7.0374369E+005	-7.1703445E+001	2.000000000000000E+000
5.0116030E+003	2.5775780E+005	8.2303869E+005	8.6245681E+005	-7.2610580E+001	2.000000000000000E+000
3.9812698E+003	3.0256103E+005	1.0062939E+006	1.0507953E+006	-7.3265617E+001	2.000000000000000E+000
3.1630396E+003	3.5468547E+005	1.2216711E+006	1.2721171E+006	-7.3810501E+001	2.000000000000000E+000
2.5124102E+003	4.1582388E+005	1.4813876E+006	1.5386419E+006	-7.4320625E+001	2.000000000000000E+000
1.9956379E+003	4.8339088E+005	1.7999223E+006	1.8637025E+006	-7.4967239E+001	2.000000000000000E+000
1.5844926E+003	5.5972688E+005	2.1893268E+006	2.2597448E+006	-7.5658859E+001	2.000000000000000E+000
1.2587904E+003	6.4529094E+005	2.6700293E+006	2.7468995E+006	-7.6413322E+001	2.000000000000000E+000
9.9968164E+002	1.5085744E+006	4.0133813E+006	4.2875430E+006	-6.9399452E+001	2.000000000000000E+000
7.9423932E+002	1.8189068E+006	4.7248260E+006	5.0628455E+006	-6.8944893E+001	2.000000000000000E+000
6.3100977E+002	2.1501958E+006	5.5683910E+006	5.9691140E+006	-6.8886276E+001	2.000000000000000E+000
5.0112231E+002	2.4800008E+006	6.5910850E+006	7.0422160E+006	-6.9380394E+001	2.000000000000000E+000
3.9808899E+002	2.8114625E+006	7.8485200E+006	8.3368810E+006	-7.0291679E+001	2.000000000000000E+000
3.1631589E+002	3.1566318E+006	9.4463040E+006	9.9597680E+006	-7.1522133E+001	2.000000000000000E+000
2.5120601E+002	3.5577860E+006	1.1431380E+007	1.1972230E+007	-7.2712303E+001	2.000000000000000E+000
1.9955261E+002	4.0650083E+006	1.3928448E+007	1.4509513E+007	-7.3730148E+001	2.000000000000000E+000
1.5852898E+002	4.6795175E+006	1.7006992E+007	1.7639038E+007	-7.4615623E+001	2.000000000000000E+000
1.2592673E+002	1.0601793E+007	2.7096080E+007	2.9096316E+007	-6.8631248E+001	2.000000000000000E+000
9.9968163E+001	1.3332542E+007	3.1796484E+007	3.4478588E+007	-6.7251274E+001	2.000000000000000E+000
7.9415733E+001	1.5935877E+007	3.6948824E+007	4.0238884E+007	-6.6669662E+001	2.000000000000000E+000
6.3082275E+001	1.9330442E+007	3.5602912E+007	4.0512140E+007	-6.1500450E+001	2.000000000000000E+000
5.0112232E+001	2.1676818E+007	5.0737912E+007	5.5174452E+007	-6.6866318E+001	2.000000000000000E+000
3.9808899E+001	2.4830662E+007	6.0113648E+007	6.5040084E+007	-6.7556343E+001	2.000000000000000E+000
3.1629576E+001	2.6807578E+007	7.2312088E+007	7.7121232E+007	-6.9659218E+001	2.000000000000000E+000
2.5120600E+001	3.4005148E+007	8.6814000E+007	9.3236368E+007	-6.8609657E+001	2.000000000000000E+000
1.9955261E+001	3.8447508E+007	1.0437725E+008	1.1123318E+008	-6.9778656E+001	2.000000000000000E+000
1.5846863E+001	8.5414992E+007	1.6928069E+008	1.8960926E+008	-6.3225578E+001	2.000000000000000E+000
1.2587234E+001	1.0912537E+008	1.9415216E+008	2.2271822E+008	-6.0661354E+001	2.000000000000000E+000
9.9968157E+000	1.3474157E+008	2.1917155E+008	2.5727701E+008	-5.8417767E+001	2.000000000000000E+000
7.9395618E+000	1.6393064E+008	2.4643619E+008	2.9597981E+008	-5.6367943E+001	2.000000000000000E+000
6.3131294E+000	1.9594138E+008	2.7713322E+008	3.3940512E+008	-5.4738560E+001	2.000000000000000E+000
5.0128322E+000	2.3244315E+008	3.1338157E+008	3.9017667E+008	-5.3434723E+001	2.000000000000000E+000
3.9819028E+000	2.7584566E+008	3.5300787E+008	4.4800154E+008	-5.1995396E+001	2.000000000000000E+000
3.1603944E+000	3.3207725E+008	3.9875203E+008	5.1892051E+008	-5.0212761E+001	2.000000000000000E+000
2.5108454E+000	3.9502957E+008	4.4683683E+008	5.9641555E+008	-4.8521458E+001	2.000000000000000E+000
1.9955261E+000	4.8321802E+008	4.8614291E+008	6.8544480E+008	-4.5172878E+001	2.000000000000000E+000
1.5840454E+000	5.8073747E+008	5.2008662E+008	7.7958074E+008	-4.1846428E+001	2.000000000000000E+000
1.2595726E+000	6.8748838E+008	5.3335552E+008	8.7011974E+008	-3.7804417E+001	2.000000000000000E+000
1.0004489E+000	7.9600256E+008	5.3316858E+008	9.5806515E+008	-3.3814476E+001	2.000000000000000E+000
1.0000193E+006	2.6544459E+004	4.5053215E+004	5.2291496E+004	-5.9494255E+001	3.000000000000000E+000
7.9432600E+005	3.4908750E+004	4.6309938E+004	5.7993371E+004	-5.2990761E+001	3.000000000000000E+000
6.3095688E+005	4.1904965E+004	4.7063148E+004	6.3015602E+004	-4.8318176E+001	3.000000000000000E+000
5.0119131E+005	4.8601570E+004	4.8073742E+004	6.8360789E+004	-4.4687180E+001	3.000000000000000E+000
3.9810538E+005	5.4695836E+004	4.9416160E+004	7.3712898E+004	-4.2096931E+001	3.000000000000000E+000
3.1623041E+005	6.0045031E+004	5.1561523E+004	7.9145414E+004	-4.0653156E+001	3.000000000000000E+000
2.5119134E+005	6.5212332E+004	5.4718953E+004	8.5128211E+004	-3.9999645E+001	3.000000000000000E+000
1.9952144E+005	7.0371211E+004	5.9024262E+004	9.1847539E+004	-3.9988438E+001	3.000000000000000E+000
1.5848630E+005	7.5474680E+004	6.4556730E+004	9.9317664E+004	-4.0541790E+001	3.000000000000000E+000
1.2588864E+005	8.1112648E+004	7.1727875E+004	1.0827811E+005	-4.1486313E+001	3.000000000000000E+000
1.0001951E+005	8.6665617E+004	8.0986547E+004	1.1861598E+005	-4.3059898E+001	3.000000000000000E+000
7.9433578E+004	9.2657234E+004	9.2474914E+004	1.3090826E+005	-4.4943573E+001	3.000000000000000E+000
6.3095688E+004	9.9018773E+004	1.0674164E+005	1.4559703E+005	-4.7149494E+001	3.000000000000000E+000
5.0117172E+004	1.0610401E+005	1.2414377E+005	1.6330872E+005	-4.9479935E+001	3.000000000000000E+000
3.9814441E+004	1.1377329E+005	1.4565391E+005	1.8482267E+005	-5.2005867E+001	3.000000000000000E+000
3.1621082E+004	1.2166396E+005	1.7208956E+005	2.1075327E+005	-5.4740437E+001	3.000000000000000E+000
2.5117180E+004	1.3105007E+005	2.0476427E+005	2.4311011E+005	-5.7380569E+001	3.000000000000000E+000
1.9951164E+004	1.3945063E+005	2.4459466E+005	2.8155466E+005	-6.0311260E+001	3.000000000000000E+000
1.5849604E+004	1.4998342E+005	2.9486725E+005	3.3081978E+005	-6.3039963E+001	3.000000000000000E+000
1.2587890E+004	1.6051803E+005	3.5683156E+005	3.9127331E+005	-6.5779755E+001	3.000000000000000E+000
1.0019525E+004	1.7934158E+005	4.8676522E+005	5.1875213E+005	-6.9774414E+001	3.000000000000000E+000
8.0808101E+003	2.0205953E+005	5.8514075E+005	6.1904581E+005	-7.0949295E+001	3.000000000000000E+000
6.4205449E+003	2.3322163E+005	7.1095169E+005	7.4822769E+005	-7.1838364E+001	3.000000000000000E+000
5.0116030E+003	2.7442547E+005	8.7669181E+005	9.1863913E+005	-7.2618629E+001	3.000000000000000E+000
3.9812698E+003	3.2364428E+005	1.0697199E+006	1.1176074E+006	-7.3166786E+001	3.000000000000000E+000
3.1630396E+003	3.8188906E+005	1.2977734E+006	1.3527953E+006	-7.3602699E+001	3.000000000000000E+000
2.5124102E+003	4.4862772E+005	1.5733535E+006	1.6360648E+006	-7.4084969E+001	3.000000000000000E+000
1.9956379E+003	5.2259138E+005	1.9072254E+006	1.9775264E+006	-7.4676704E+001	3.000000000000000E+000
1.5844926E+003	6.0493581E+005	2.3194228E+006	2.3970125E+006	-7.5382156E+001	3.000000000000000E+000
1.2587904E+003	7.0216581E+005	2.8286990E+006	2.9145455E+006	-7.6059288E+001	3.000000000000000E+000
9.9968164E+002	1.6356488E+006	4.2475745E+006	4.5516190E+006	-6.8939384E+001	3.000000000000000E+000
7.9423932E+002	1.9615385E+006	4.9559775E+006	5.3300420E+006	-6.8406715E+001	3.000000000000000E+000
6.3100977E+002	2.2974028E+006	5.8148160E+006	6.2522110E+006	-6.8441292E+001	3.000000000000000E+000
5.0112231E+002	2.6448335E+006	6.8839620E+006	7.3745560E+006	-6.8983116E+001	3.000000000000000E+000
3.9808899E+002	2.9975235E+006	8.1977850E+006	8.7286210E+006	-6.9915039E+001	3.000000000000000E+000
3.1631589E+002	3.3739080E+006	9.8601140E+006	1.0421377E+007	-7.1110214E+001	3.000000000000000E+000
2.5120601E+002	3.8132823E+006	1.1956479E+007	1.2549841E+007	-7.2310944E+001	3.000000000000000E+000
1.9955261E+002	4.3359520E+006	1.4538685E+007	1.5171481E+007	-7.3393555E+001	3.000000000000000E+000
1.5852898E+002	4.9882555E+006	1.7733990E+007	1.8422190E+007	-7.4289650E+001	3.000000000000000E+000
1.2592673E+002	1.1375958E+007	2.8507758E+007	3.0693724E+007	-6.8245636E+001	3.000000000000000E+000
9.9968163E+001	1.4306829E+007	3.3374754E+007	3.6311976E+007	-6.6796532E+001	3.000000000000000E+000
7.9415733E+001	1.7169762E+007	3.8862548E+007	4.2486448E+007	-6.6163803E+001	3.000000000000000E+000
6.3082275E+001	1.7788956E+007	3.6073544E+007	4.0221232E+007	-6.3750698E+001	3.000000000000000E+000
5.0112232E+001	2.3578412E+007	5.3698576E+007	5.8647068E+007	-6.6294289E+001	3.000000000000000E+000
3.9808899E+001	2.7104252E+007	6.3465648E+007	6.9011080E+007	-6.6874146E+001	3.000000000000000E+000
3.1629576E+001	3.1987278E+007	7.7406440E+007	8.3755256E+007	-6.7547729E+001	3.000000000000000E+000
2.5120600E+001	3.6991984E+007	9.0843720E+007	9.8086640E+007	-6.7843620E+001	3.000000000000000E+000
1.9955261E+001	4.4029024E+007	1.1058525E+008	1.1902794E+008	-6.8290245E+001	3.000000000000000E+000
1.5846863E+001	5.2570156E+007	1.3254706E+008	1.4259154E+008	-6.8365982E+001	3.000000000000000E+000
1.2587234E+001	1.2148724E+008	1.9975040E+008	2.3379344E+008	-5.8692234E+001	3.000000000000000E+000
9.9968157E+000	1.5003074E+008	2.2521626E+008	2.7061334E+008	-5.6329914E+001	3.000000000000000E+000
7.9395618E+000	1.8239248E+008	2.5077494E+008	3.1008883E+008	-5.3971027E+001	3.000000000000000E+000
6.3131294E+000	2.1791837E+008	2.7980499E+008	3.5465370E+008	-5.2087746E+001	3.000000000000000E+000
5.0128322E+000	2.5868810E+008	3.1143562E+008	4.0486006E+008	-5.0285927E+001	3.000000000000000E+000
3.9819028E+000	3.0835222E+008	3.4488704E+008	4.6263178E+008	-4.8201145E+001	3.000000000000000E+000
3.1603944E+000	3.6693130E+008	3.8134211E+008	5.2920730E+008	-4.6103310E+001	3.000000000000000E+000
2.5108454E+000	4.3896902E+008	4.1111091E+008	6.0141997E+008	-4.3123020E+001	3.000000000000000E+000
1.9955261E+000	5.2106266E+008	4.3992835E+008	6.8194080E+008	-4.0174091E+001	3.000000000000000E+000
1.5840454E+000	6.1180205E+008	4.5272176E+008	7.6109050E+008	-3.6500729E+001	3.000000000000000E+000
1.2595726E+000	7.0352544E+008	4.4839728E+008	8.3427104E+008	-3.2511707E+001	3.000000000000000E+000
1.0004489E+000	7.9118963E+008	4.2824246E+008	8.9965139E+008	-2.8425087E+001	3.000000000000000E+000
1.0000193E+006	2.7467246E+004	4.5615281E+004	5.3246629E+004	-5.8945747E+001	4.000000000000000E+000
7.9432600E+005	3.4710254E+004	4.7309453E+004	5.8676965E+004	-5.3733047E+001	4.000000000000000E+000
6.3095688E+005	4.1955598E+004	4.8242602E+004	6.3934504E+004	-4.8987186E+001	4.000000000000000E+000
5.0119131E+005	4.8724105E+004	4.9565230E+004	6.9503602E+004	-4.5490307E+001	4.000000000000000E+000
3.9810538E+005	5.4964090E+004	5.0950523E+004	7.4946695E+004	-4.2829853E+001	4.000000000000000E+000
3.1623041E+005	6.0267164E+004	5.3558840E+004	8.0626797E+004	-4.1627182E+001	4.000000000000000E+000
2.5119134E+005	6.5503824E+004	5.7049965E+004	8.6864547E+004	-4.1053940E+001	4.000000000000000E+000
1.9952144E+005	7.0723914E+004	6.1801078E+004	9.3921484E+004	-4.1148121E+001	4.000000000000000E+000
1.5848630E+005	7.6069195E+004	6.8148344E+004	1.0213089E+005	-4.1856304E+001	4.000000000000000E+000
1.2588864E+005	8.1866656E+004	7.6077336E+004	1.1175827E+005	-4.2900803E+001	4.000000000000000E+000
1.0001951E+005	8.7981313E+004	8.6327359E+004	1.2326039E+005	-4.4456356E+001	4.000000000000000E+000
7.9433578E+004	9.4086008E+004	9.8734664E+004	1.3638442E+005	-4.6381058E+001	4.000000000000000E+000
6.3095688E+004	1.0080954E+005	1.1442488E+005	1.5249792E+005	-4.8619606E+001	4.000000000000000E+000
5.0117172E+004	1.0833384E+005	1.3326097E+005	1.7174023E+005	-5.0890785E+001	4.000000000000000E+000
3.9814441E+004	1.1687568E+005	1.5665523E+005	1.9545022E+005	-5.3274506E+001	4.000000000000000E+000
3.1621082E+004	1.2568281E+005	1.8505972E+005	2.2370353E+005	-5.5817719E+001	4.000000000000000E+000
2.5117180E+004	1.3578178E+005	2.1995923E+005	2.5849325E+005	-5.8312786E+001	4.000000000000000E+000
1.9951164E+004	1.4537925E+005	2.6320731E+005	3.0068791E+005	-6.1086487E+001	4.000000000000000E+000
